! TOUCHSTONE file generated by CST MICROWAVE STUDIO
! Date and time: Tue Apr 22 20:06:15 2025
! Project name: XBANDNOBLENDPOWER.cst
! Parameters = {L=6; Pin=1; a=20; b=10; blendFmax=0.02; blendraduis=2.85; d=5; s=4; ta=16.03; tb=10.61; totaltime=10; trh=1.69; wr=11.49; wt=0.91}
! Header version: 2018
! Port assignment regex: !\s*Touchstone port\s*([0-9]+)\s*=\s*(CST MWS port|CST DS port)\s*([0-9]+|Zmin|Zmax)\s*\(\"(.*)\"\)(\s*mode\s*([0-9]+))?.*
! Touchstone port assignment:
! Touchstone port 1 = CST MWS port 1 ("")
! Touchstone port 2 = CST MWS port 2 ("")
! S-Parameters are not renormalized. Unphysical impedance of 0 will be written to the file.
# GHz S MA R 0
5.8                 0.0906132099      -179.83908      0.621540557   -0.0787743061      0.621540672    -0.078778586     0.0877078768      -179.81961
5.8062              0.0935941977     -179.834114      0.627982396   -0.0742920203      0.627982274   -0.0742928899     0.0904267859     -179.811067
5.8124              0.0970311697       -179.8568      0.634680392   -0.0713314867      0.634680171   -0.0713241834     0.0935584648     -179.829525
5.8186                0.10102301     -179.896567      0.641583836   -0.0731574083      0.641583645   -0.0731437316     0.0971877325      -179.86581
5.8248               0.105723978     -179.939283      0.648605873   -0.0808990352      0.648605791   -0.0808859028       0.10144621     -179.906875
5.831                0.111377304     -179.973329      0.655626464   -0.0922708743      0.655626489   -0.0922665613      0.106540998     -179.940939
5.8372                0.11836176      179.998978      0.662503024    -0.101204408      0.662503073    -0.101212482       0.11279451      -179.96775
5.8434               0.127250138      179.947693      0.669074922    -0.100516414      0.669074903    -0.100529304       0.12069383      179.987834
5.8496               0.138888328      179.818722      0.675089297   -0.0912353111      0.675089286   -0.0912344417      0.130951402      179.874205
5.8558               0.154634212      179.610581      0.679786912   -0.0991997489      0.679787385   -0.0991789445       0.14466302      179.672011
5.862                0.177747736      179.565782      0.680424645    -0.165060136      0.680426238    -0.165092355      0.164244534      179.573197
5.8682               0.220501107      179.724799      0.668790463    -0.108740992      0.668791614    -0.108995216      0.198501541      179.775435
5.8744               0.323113792      177.258796      0.623063384     0.745150902      0.623062728     0.745016932      0.275126282      177.917952
5.8806               0.533162148      119.818917      0.771013059      28.0981876      0.771013244      28.0981749       0.51779286       133.07774
5.8868               0.309575658      100.551811      0.934283092      11.5482459      0.934283158      11.5482486      0.308646107      107.320386
5.893                0.235062657      93.9983009      0.962571241      5.00681684      0.962570776      5.00681552      0.234824093      99.1669654
5.8992               0.194416871      89.9943377      0.974097084     0.919435965       0.97409698     0.919445218      0.194334157      94.3658768
5.9054               0.167685421      87.0426465      0.980413172     -2.10929208      0.980413444     -2.10929273      0.167657467      90.9155917
5.9116               0.148281309      84.6736262      0.984339019     -4.55215591      0.984339484     -4.55217371      0.148271919      88.2002588
5.9178               0.133320171      82.6729065      0.986980219     -6.62036897      0.986980709     -6.62040365      0.133317895      85.9436803
5.924                0.121296985      80.9228701      0.988880879     -8.42835997      0.988881279     -8.42840785      0.121298989      83.9959033
5.9302               0.111335544      79.3535349      0.990327919      -10.045712      0.990328161     -10.0457681      0.111341203      82.2683016
5.9364               0.102887127      77.9210901      0.991477092      -11.517701       0.99147715     -11.5177603      0.102896038      80.7057078
5.9426              0.0955892266      76.5967965      0.992416038     -12.8751521      0.992415917     -12.8752101     0.0956008207       79.272156
5.9488              0.0891919543      75.3608738      0.993196971     -14.1398188      0.993196697     -14.1398721     0.0892055528      77.9430722
5.955               0.0835168234       74.199044      0.993853507     -15.3275485      0.993853117     -15.3275946      0.083531761      76.7008665
5.9612              0.0784324129      73.1005417      0.994409204      -16.450228      0.994408739     -16.4502654     0.0784481168      75.5323944
5.9674              0.0738393821      72.0569429      0.994881848      -17.517016      0.994881348     -17.5170441     0.0738554059      74.4274628
5.9736              0.0696609152      71.0614593       0.99528561     -18.5351427      0.995285113     -18.5351614     0.0696769397      73.3779265
5.9798              0.0658364369      70.1084971      0.995632144     -19.5104387      0.995631682     -19.5104486     0.0658522544      72.3771256
5.986               0.0623173612      69.1933708       0.99593118     -20.4476938      0.995930778     -20.4476956     0.0623328533      71.4195193
5.9922              0.0590641423      68.3121095      0.996190874     -21.3509049      0.996190554     -21.3508997     0.0590792577        70.50044
5.9984              0.0560441802      67.4613189      0.996418056     -22.2234511       0.99641783       -22.22344     0.0560589142      69.6159188
6                   0.0552992746      67.2463402      0.996472124     -22.4440091      0.996471924     -22.4439966     0.0553139135      69.3928385
6.0046              0.0532303001      66.6380796      0.996618411     -23.0682212      0.996618288     -23.0682053     0.0532446787      68.7625581
6.0108               0.050599628      65.8398685       0.99679664     -23.8877071      0.996796626     -23.8876876     0.0506136947      67.9374347
6.017               0.0481327431      65.0644977      0.996956604     -24.6840754      0.996956698     -24.6840534       0.04814655      67.1380234
6.0232              0.0458130297      64.3100639      0.997101447     -25.4592218      0.997101647     -25.4591983     0.0458266307      66.3621363
6.0294              0.0436261736      63.5749072      0.997233708     -26.2148149      0.997234009     -26.2147907       0.04363962      65.6078732
6.0356              0.0415597658      62.8575774      0.997355427     -26.9523298      0.997355822     -26.9523057     0.0415731037      64.8735804
6.0418               0.039602988      62.1568048      0.997468224      -27.673077      0.997468706     -27.6730537     0.0396162568      64.1578167
6.048               0.0377463592      61.4714763      0.997573379     -28.3782249      0.997573938      -28.378203     0.0377595906       63.459325
6.0542              0.0359815297      60.8006146      0.997671895     -29.0688193      0.997672523     -29.0687992     0.0359947483       62.777008
6.0604              0.0343011136      60.1433614      0.997764552      -29.745799      0.997765239      -29.745781      0.034314337      62.1099082
6.0666              0.0326985498      59.4989625      0.997851952     -30.4100097      0.997852688     -30.4099942      0.032711789       61.457191
6.0728              0.0311679872      58.8667554      0.997934558     -31.0622157      0.997935333     -31.0622028     0.0311812475      60.8181307
6.079                0.029704188      58.2461592      0.998012721     -31.7031092      0.998013527      -31.703099     0.0297174701      60.1920984
6.0852              0.0283024478      57.6366658      0.998086711     -32.3333192      0.998087539     -32.3333119     0.0283157481      59.5785529
6.0914              0.0269585264      57.0378329      0.998156731      -32.953419      0.998157573     -32.9534146     0.0269718383      58.9770322
6.0976              0.0256685908       56.449278       0.99822294      -33.563932      0.998223787     -33.5639303     0.0256819051       58.387148
6.1038              0.0244291652      55.8706745      0.998285459     -34.1653376      0.998286306     -34.1653387     0.0244424708      57.8085807
6.11                 0.023237089      55.3017476      0.998344388     -34.7580759      0.998345227     -34.7580797     0.0232503737      57.2410765
6.1162              0.0220894803      54.7422726      0.998399809     -35.3425521      0.998400635     -35.3425585     0.0221027313      56.6844455
6.1224              0.0209837049      54.1920733      0.998451795     -35.9191398      0.998452602     -35.9191485     0.0209969091      56.1385618
6.1286              0.0199173485      53.6510223      0.998500412     -36.4881844      0.998501196     -36.4881954     0.0199304931      55.6033642
6.1348              0.0188881938      53.1190418      0.998545726     -37.0500062      0.998546483     -37.0500193     0.0189012666      55.0788598
6.141               0.0178941992      52.5961063      0.998587804     -37.6049025      0.998588529     -37.6049175     0.0179071891      54.5651282
6.1472              0.0169334815      52.0822465      0.998626712       -38.15315      0.998627403     -38.1531668     0.0169463786      54.0623289
6.1534              0.0160042996      51.5775548      0.998662523     -38.6950069      0.998663177     -38.6950252     0.0160170956      53.5707111
6.1596              0.0151050408      51.0821935      0.998695312     -39.2307143      0.998695927      -39.230734     0.0151177292      53.0906265
6.1658              0.0142342087      50.5964055      0.998725159     -39.7604981      0.998725733      -39.760519     0.0142467851      52.6225471
6.172               0.0133904121       50.120529      0.998752148     -40.2845701      0.998752679     -40.2845921     0.0134028744      52.1670878
6.1782              0.0125723556      49.6550162      0.998776368     -40.8031295      0.998776855     -40.8031523     0.0125847045      51.7250367
6.1844              0.0117788311       49.200459      0.998797911     -41.3163636      0.998798353     -41.3163871     0.0117910702      51.2973956
6.1906                0.01100871      48.7576237      0.998816872     -41.8244491      0.998817269     -41.8244731     0.0110208464      50.8854335
6.1968              0.0102609369      48.3274972      0.998833351      -42.327553      0.998833702     -42.3275774     0.0102729816      50.4907594
6.203              0.00953452321      47.9113515      0.998847449     -42.8258331      0.998847754     -42.8258578    0.00954649202      50.1154223
6.2092             0.00882854213      47.5108323      0.998859268     -43.3194391      0.998859528     -43.3194639    0.00884045619      49.7620496
6.2154             0.00814212375      47.1280864      0.998868914     -43.8085127      0.998869129     -43.8085375      0.008154011       49.434044
6.2216             0.00747445105      46.7659449      0.998876492     -44.2931888      0.998876662     -44.2932135    0.00748634776      49.1358681
6.2278             0.00682475634      46.4281962      0.998882107     -44.7735956      0.998882233       -44.77362    0.00683670945      48.8734665
6.234              0.00619231836      46.1200013      0.998885867     -45.2498551      0.998885949     -45.2498792    0.00620438883      48.6549085
6.2402             0.00557646014      45.8485499      0.998887875     -45.7220837      0.998887915     -45.7221074    0.00558872788       48.491399
6.2464             0.00497654791      45.6241322      0.998888237     -46.1903926      0.998888235     -46.1904158    0.00498911937      48.3989289
6.2526             0.00439199152       45.461974      0.998887056     -46.6548878      0.998887013     -46.6549104    0.00440501175      48.4010898
6.2588             0.00382224779      45.3855507      0.998884433      -47.115671       0.99888435     -47.1156929    0.00383592056      48.5341394
6.265              0.00326682933      45.4329849      0.998880469     -47.5728392      0.998880348     -47.5728604    0.00328145273      48.8567257
6.2712             0.00272532587      45.6704814      0.998875261     -48.0264858      0.998875102     -48.0265061    0.00274136012      49.4701481
6.2774             0.00219745728      46.2238215      0.998868904     -48.4766999       0.99886871     -48.4767194    0.00221566688      50.5652863
6.2836             0.00168322201      47.3642302      0.998861493     -48.9235673      0.998861263      -48.923586    0.00170501602      52.5479849
6.2898             0.00118341033      49.8007913      0.998853117     -49.3671705      0.998852853     -49.3671882    0.00121182672      56.4496705
6.296             0.000702179861      56.1187777      0.998843863     -49.8075886      0.998843567     -49.8076053   0.000745683075      65.7587113
6.3022            0.000275938698      85.2315651      0.998833817     -50.2448978       0.99883349     -50.2449135    0.00036703802      98.4472977
6.3084            0.000342327671       -176.5759       0.99882306     -50.6791714      0.998822704     -50.6791861   0.000414704629      171.841196
6.3146            0.000765404684     -156.616635      0.998811671     -51.1104802      0.998811286     -51.1104938   0.000798402013     -163.023984
6.3208             0.00120572645     -151.494946      0.998799726     -51.5388921      0.998799313     -51.5389047    0.00122586485     -155.248332
6.327              0.00164149866     -149.392912      0.998787297      -51.964473      0.998786858     -51.9644845    0.00165570992     -151.817137
6.3332             0.00206962196     -148.375696      0.998774453     -52.3872862       0.99877399     -52.3872966    0.00208052146     -150.019586
6.3394             0.00248939777     -147.866844      0.998761262     -52.8073929      0.998760775     -52.8074022     0.0024982328      -149.00121
6.3456             0.00290072107      -147.63568      0.998747786     -53.2248523      0.998747276     -53.2248605    0.00290817844     -148.412488
6.3518             0.00330368482     -147.572111      0.998734085     -53.6397214      0.998733554     -53.6397285    0.00331018064      -148.08476
6.358              0.00369845881      -147.61701      0.998720217     -54.0520556      0.998719666     -54.0520616    0.00370426282     -147.926875
6.3642             0.00408524431     -147.735812      0.998706237     -54.4619083      0.998705666     -54.4619133    0.00409054022     -147.885329
6.3704             0.00446425451     -147.906976      0.998692194     -54.8693313      0.998691606     -54.8693351    0.00446917227     -147.926677
6.3766             0.00483570541     -148.116386      0.998678139     -55.2743746      0.998677534     -55.2743774    0.00484033957     -148.028959
6.3828             0.00519981116     -148.354413      0.998664117     -55.6770867      0.998663496     -55.6770885    0.00520423211     -148.177168
6.389              0.00555678176     -148.614268       0.99865017     -56.0775148      0.998649534     -56.0775155    0.00556104277     -148.360705
6.3952             0.00590682179     -148.891033      0.998636339     -56.4757043      0.998635689     -56.4757039    0.00591096373     -148.571881
6.4014              0.0062501298     -149.181058      0.998622662     -56.8716994         0.998622     -56.8716981    0.00625418429      -148.80498
6.4076             0.00658689806     -149.481583      0.998609175      -57.265543        0.9986085     -57.2655407    0.00659088974     -149.055674
6.4138             0.00691731252     -149.790483       0.99859591     -57.6572767      0.998595224     -57.6572734     0.0069212606     -149.320622
6.42                0.0072415528     -150.106098      0.998582897     -58.0469408      0.998582201     -58.0469365    0.00724547231     -149.597212
6.4262             0.00755979242     -150.427114      0.998570166     -58.4345745      0.998569461     -58.4345693    0.00756369501      -149.88337
6.4324             0.00787219886     -150.752479      0.998557742      -58.820216      0.998557028     -58.8202098    0.00787609354     -150.177432
6.4386             0.00817893384      -151.08134      0.998545649      -59.203902      0.998544928      -59.203895    0.00818282743     -150.478047
6.4448             0.00848015347     -151.413004       0.99853391     -59.5856686      0.998533182     -59.5856607    0.00848405106     -150.784111
6.451               0.0087760085     -151.746899      0.998522545     -59.9655507       0.99852181      -59.965542    0.00877991371     -151.094712
6.4572             0.00906664447      -152.08255      0.998511572     -60.3435823      0.998510832     -60.3435727    0.00907055974      -151.40909
6.4634             0.00935220196     -152.419564      0.998501007     -60.7197962      0.998500262     -60.7197858    0.00935612876      -151.72661
6.4696             0.00963281677     -152.757608      0.998490866     -61.0942247      0.998490117     -61.0942135    0.00963675573     -152.046736
6.4758              0.0099086201     -153.096403      0.998481162      -61.466899      0.998480409     -61.4668871    0.00991257119     -152.369015
6.482               0.0101797388     -153.435714      0.998471907     -61.8378494      0.998471151     -61.8378368     0.0101837014      -152.69306
6.4882              0.0104462954     -153.775338       0.99846311     -62.2071057      0.998462351     -62.2070923     0.0104502684      -153.01854
6.4944              0.0107084084     -154.115104      0.998454781     -62.5746965       0.99845402     -62.5746824     0.0107123904     -153.345172
6.5006              0.0109661925     -154.454866      0.998446927     -62.9406499      0.998446165     -62.9406352     0.0109701817      -153.67271
6.5068              0.0112197585     -154.794499      0.998439554     -63.3049933      0.998438792     -63.3049779     0.0112237529     -154.000943
6.513               0.0114692139     -155.133893      0.998432669     -63.6677533      0.998431906     -63.6677373      0.011473211     -154.329688
6.5192              0.0117146623     -155.472957      0.998426273     -64.0289557      0.998425511     -64.0289392     0.0117186598     -154.658784
6.5254              0.0119562044      -155.81161      0.998420371      -64.388626       0.99841961     -64.3886089     0.0119601997     -154.988093
6.5316              0.0121939376     -156.149783      0.998414965     -64.7467887      0.998414204      -64.746771     0.0121979279     -155.317492
6.5378              0.0124279561     -156.487416      0.998410055     -65.1034679      0.998409296     -65.1034497     0.0124319385     -155.646874
6.544               0.0126583513     -156.824459      0.998405641      -65.458687      0.998404883     -65.4586682      0.012662323     -155.976148
6.5502              0.0128852117     -157.160866      0.998401722     -65.8124688      0.998400967     -65.8124495     0.0128891697     -156.305229
6.5564              0.0131086231     -157.496601      0.998398297     -66.1648356      0.998397545     -66.1648159     0.0131125645     -156.634048
6.5626              0.0133286687     -157.831629      0.998395363     -66.5158092      0.998394614     -66.5157891     0.0133325906      -156.96254
6.5688              0.0135454293     -158.165925      0.998392917     -66.8654109      0.998392172     -66.8653903     0.0135493285     -157.290649
6.575               0.0137589829     -158.499462      0.998390956     -67.2136612      0.998390215     -67.2136402     0.0137628566     -157.618327
6.5812              0.0139694057     -158.832222      0.998389475     -67.5605805      0.998388738     -67.5605591     0.0139732507      -157.94553
6.5874              0.0141767711     -159.164187      0.998388469     -67.9061885      0.998387736     -67.9061667     0.0141805846     -158.272222
6.5936              0.0143811506     -159.495343      0.998387933     -68.2505045      0.998387204     -68.2504823     0.0143849298     -158.598367
