"Freq [GHz]","dB(S(1,1)) []","dB(S(2,1)) []"
6,-25.4722777248533,-0.0307251222572117
6.0125,-26.1302076579803,-0.0225584657968528
6.025,-26.7866684408029,-0.0156899501525951
6.0375,-27.4426179555931,-0.00994983710199797
6.05,-28.0991698589827,-0.00518958009208224
6.0625,-28.7575775842329,-0.00127915801339707
6.075,-29.4192285292811,0.00189525031573756
6.0875,-30.0856470152465,0.0044332941664982
6.1,-30.7585052829753,0.00642221951865153
6.1125,-31.4396424221659,0.00793841173442398
6.125,-32.1310917501395,0.00904874156309101
6.1375,-32.8351178366758,0.00981174003093351
6.15,-33.5542651848317,0.0102786244787033
6.1625,-34.291421630615,0.0104941951116495
6.175,-35.0499009701507,0.0104976188887135
6.1875,-35.8335513969044,0.0103231153608194
6.2,-36.6468994093343,0.0100005571376814
6.2125,-37.495343550753,0.00955599598447876
6.225,-38.3854197205485,0.00901212409362787
6.2375,-39.325171687402,0.00838867881446243
6.25,-40.3246801422022,0.00770279803035125
6.2625,-41.3968372435632,0.00696933242609647
6.275,-42.5585126433377,0.00620112006934762
6.2875,-43.8323634531975,0.00540922802062715
6.3,-45.2497357561287,0.00460316507306028
6.3125,-46.8554557895757,0.00379106919155047
6.325,-48.7158404499428,0.00297987276107771
6.3375,-50.9312339527072,0.00217544835523044
6.35,-53.6460208584563,0.00138273739041999
6.3625,-56.9610280147085,0.0006058637314821
6.375,-60.0097947524322,-0.000151765945828183
6.3875,-59.4482564983426,-0.000887373456050023
6.4,-56.3742028639809,-0.00159873068601363
6.4125,-53.5689911192128,-0.00228409024569877
6.425,-51.358097145351,-0.00294212412495869
6.4375,-49.5968344554655,-0.003571869422856
6.45,-48.1547952846999,-0.00417268032953774
6.4625,-46.9444788303024,-0.00474418563948308
6.475,-45.9079043049481,-0.00528625116128002
6.4875,-45.0055515406959,-0.00579894646461163
6.5,-44.2095670043475,-0.00628251547135461
6.5125,-43.4996997213923,-0.00673735045555325
6.525,-42.8608188533178,-0.00716396906792867
6.5375,-42.2813493102078,-0.00756299404518748
6.55,-41.752253988007,-0.00793513530357867
6.5625,-41.2663516706685,-0.00828117415064733
6.575,-40.8178474486163,-0.00860194937950388
6.5875,-40.4020015773439,-0.00889834503658131
6.6,-40.014890897225,-0.00917127967755372
6.6125,-39.6532336133588,-0.00942169694675648
6.625,-39.3142583776217,-0.00965055733390566
6.6375,-38.9956049473486,-0.00985883097816734
6.65,-38.6952477445784,-0.0100474914039029
6.6625,-38.4114362874472,-0.0102175100852268
6.675,-38.1426482318984,-0.0103698517477471
6.6875,-37.8875519627251,-0.0105054703258539
6.7,-37.6449765033507,-0.0106253055027841
6.7125,-37.4138870970387,-0.0107302797685529
6.725,-37.193365227956,-0.0108212959379138
6.7375,-36.982592150801,-0.010899235076597
6.75,-36.7808352173377,-0.0109649547897534
6.7625,-36.5874364506613,-0.0110192878313672
6.775,-36.4018029395366,-0.0110630409978323
6.7875,-36.2233987169392,-0.0110969942728008
6.8,-36.0517378569135,-0.0111219001938879
6.8125,-35.8863785776917,-0.0111384834149816
6.825,-35.7269181807655,-0.0111474404406124
6.8375,-35.572988688227,-0.0111494395114134
6.85,-35.4242530663854,-0.0111451206218734
6.8625,-35.2804019440212,-0.0111350956535748
6.875,-35.1411507498872,-0.0111199486089335
6.8875,-35.0062372071047,-0.0111002359319953
6.9,-34.8754191326313,-0.0110764869042978
6.9125,-34.7484724985239,-0.0110492041051173
6.925,-34.625189718701,-0.0110188639264998
6.9375,-34.5053781306235,-0.010985917134567
6.95,-34.3888586460359,-0.0109507894694566
6.9625,-34.2754645488097,-0.0109138822771499
6.975,-34.1650404211779,-0.0108755731671146
6.9875,-34.0574411823593,-0.0108362166903543
7,-33.9525312258417,-0.010796145033202
7.0125,-33.8501836435054,-0.0107556687224599
7.025,-33.7502795263819,-0.0107150773382572
7.0375,-33.6527073332063,-0.010674640231212
7.05,-33.5573623190908,-0.0106346072410358
7.0625,-33.4641460176302,-0.0105952094139197
7.075,-33.3729657706041,-0.0105566597164859
7.0875,-33.2837343001655,-0.0105191537442773
7.1,-33.1963693190307,-0.0104828704230798
7.1125,-33.1107931747271,-0.0104479727015384
7.125,-33.0269325244225,-0.0104146082337482
7.1375,-32.9447180372628,-0.0103829100507511
7.15,-32.8640841215,-0.0103529972199265
7.1625,-32.7849686739968,-0.0103249754914644
7.175,-32.7073128499633,-0.010298937931269
7.1875,-32.6310608510174,-0.0102749655396903
7.2,-32.5561597298631,-0.010253127855676
7.2125,-32.4825592100648,-0.0102334835459043
7.225,-32.4102115195541,-0.0102160809786737
7.2375,-32.3390712366457,-0.0102009587823459
7.25,-32.2690951474644,-0.0101881463881374
7.2625,-32.2002421137948,-0.0101776645572575
7.275,-32.1324729504633,-0.0101695258923081
7.2875,-32.0657503114493,-0.0101637353329989
7.3,-32.000038583998,-0.0101602906361956
7.3125,-31.9353037900795,-0.010159182840443
7.325,-31.871513494598,-0.0101603967150608
7.3375,-31.8086367198106,-0.0101639111939581
7.35,-31.7466438654649,-0.0101696997943899
7.3625,-31.6855066342098,-0.0101777310207772
7.375,-31.6251979618711,-0.0101879687539035
7.3875,-31.565691952223,-0.0102003726256581
7.4,-31.5069638159158,-0.0102148983795551
7.4125,-31.4489898132506,-0.0102314982173653
7.425,-31.3917472005187,-0.0102501211320404
7.4375,-31.3352141796451,-0.0102707132272673
7.45,-31.2793698508999,-0.010293218023895
7.4625,-31.2241941684588,-0.0103175767535163
7.475,-31.1696678986116,-0.0103437286395446
7.4875,-31.1157725804362,-0.0103716111659843
7.5,-31.0624904887665,-0.0104011603342845
7.5125,-31.0098045992995,-0.010432310908499
7.525,-30.9576985556965,-0.0104649966490592
7.5375,-30.9061566385456,-0.0104991505354781
7.55,-30.8551637360636,-0.0105347049782324
7.5625,-30.8047053164218,-0.0105715920201516
7.575,-30.7547674015926,-0.010609743527554
7.5875,-30.7053365426185,-0.010649091371456
7.6,-30.6563997962132,-0.0106895675990845
7.6125,-30.6079447026115,-0.0107311045960178
7.625,-30.5599592645909,-0.0107736352391908
7.6375,-30.5124319275911,-0.0108170930410216
7.65,-30.4653515608665,-0.010861412284978
7.6625,-30.4187074396073,-0.0109065281527606
7.675,-30.372489227973,-0.0109523768434337
7.6875,-30.3266869629823,-0.0109988956846918
7.7,-30.2812910392108,-0.0110460232365432
7.7125,-30.2362921942482,-0.0110936993876379
7.725,-30.1916814948716,-0.0111418654444575
7.7375,-30.1474503238942,-0.0111904642136341
7.75,-30.1035903676502,-0.0112394400775812
7.7625,-30.0600936040812,-0.0112887390636875
7.775,-30.0169522913892,-0.0113383089072633
7.7875,-29.9741589572267,-0.0113880991084803
7.8,-29.9317063883926,-0.0114380609834679
7.8125,-29.8895876210072,-0.011488147709808
7.825,-29.8477959311406,-0.0115383143666033
7.8375,-29.8063248258704,-0.0115885179693153
7.85,-29.7651680347446,-0.0116387174995343
7.8625,-29.7243195016304,-0.0116888739299255
7.875,-29.683773376927,-0.0117389502444561
7.8875,-29.6435240101239,-0.0117889114541293
7.9,-29.6035659426883,-0.0118387246083591
7.9125,-29.5638939012626,-0.0118883588021917
7.925,-29.5245027911581,-0.0119377851794778
7.9375,-29.4853876901286,-0.0119869769322163
7.95,-29.4465438424116,-0.012035909296177
7.9625,-29.4079666530218,-0.0120845595429649
7.975,-29.3696516822865,-0.0121329069686662
7.9875,-29.3315946406095,-0.0121809328792549
8,-29.2937913834532,-0.012228620572827
8.0125,-29.2562379065287,-0.012275955318863
8.025,-29.2189303411828,-0.0123229243346308
8.0375,-29.1818649499737,-0.012369516758821
8.05,-29.1450381224263,-0.0124157236226079
8.0625,-29.1084463709577,-0.0124615378181965
8.075,-29.0720863269664,-0.0125069540649957
8.0875,-29.0359547370766,-0.0125519688735658
8.1,-29.0000484595313,-0.0125965805073643
8.1125,-28.9643644607263,-0.0126407889425405
8.125,-28.9288998118798,-0.012684595825723
8.1375,-28.8936516858309,-0.0127280044300374
8.15,-28.8586173539617,-0.0127710196093993
8.1625,-28.8237941832366,-0.0128136477511546
8.175,-28.7891796333545,-0.0128558967272431
8.1875,-28.7547712540091,-0.0128977758439084
8.2,-28.7205666822511,-0.0129392957900631
8.2125,-28.6865636399498,-0.0129804685844409
8.225,-28.6527599313487,-0.0130213075215617
8.2375,-28.6191534407105,-0.0130618271166351
8.25,-28.5857421300499,-0.0131020430494771
8.2625,-28.5525240369475,-0.0131419721075278
8.275,-28.5194972724439,-0.0131816321280316
8.2875,-28.4866600190092,-0.0132210419394613
8.3,-28.4540105285852,-0.0132602213023024
8.3125,-28.4215471206977,-0.0132991908491896
8.325,-28.3892681806347,-0.0133379720245903
8.3375,-28.3571721576894,-0.0133765870239442
8.35,-28.3252575634645,-0.0134150587324936
8.3625,-28.2935229702353,-0.0134534106637526
8.375,-28.2619670093689,-0.0134916668977644
8.3875,-28.2305883697989,-0.0135298520191101
8.4,-28.1993857965508,-0.0135679910548628
8.4125,-28.1683580893183,-0.0136061094124392
8.425,-28.1375041010875,-0.0136442328174812
8.4375,-28.1068227368074,-0.0136823872517454
8.45,-28.0763129521038,-0.0137205988911784
8.4625,-28.0459737520377,-0.0137588940441032
8.475,-28.0158041899027,-0.0137972990896822
8.4875,-27.9858033660631,-0.0138358404166435
8.5,-27.9559704268295,-0.0138745443623345
8.5125,-27.9263045633708,-0.0139134371521819
8.525,-27.8968050106616,-0.0139525448396015
8.5375,-27.8674710464629,-0.0139918932463671
8.55,-27.8383019903357,-0.014031507903545
8.5625,-27.8092972026859,-0.0140714139930118
8.575,-27.7804560838392,-0.0141116362895924
8.5875,-27.751778073145,-0.0141521991039128
8.6,-27.723262648109,-0.0141931262259305
8.6125,-27.6949093235515,-0.0142344408692886
8.625,-27.6667176507934,-0.0142761656164531
8.6375,-27.638687216866,-0.0143183223646982
8.65,-27.6108176437457,-0.0143609322730362
8.6625,-27.583108587612,-0.0144040157100321
8.675,-27.5555597381282,-0.0144475922026413
8.6875,-27.5281708177442,-0.0144916803860475
8.7,-27.5009415810196,-0.0145362979545647
8.7125,-27.4738718139686,-0.0145814616136347
8.725,-27.4469613334235,-0.0146271870329661
8.7375,-27.4202099864179,-0.0146734888008432
8.75,-27.3936176495888,-0.0147203803796195
8.7625,-27.3671842285963,-0.0147678740624957
8.775,-27.3409096575604,-0.0148159809315483
8.7875,-27.3147938985162,-0.0148647108170633
8.8,-27.288836940884,-0.0149140722582463
8.8125,-27.2630388009563,-0.0149640724652832
8.825,-27.2373995214006,-0.0150147172828082
8.8375,-27.2119191707768,-0.0150660111548505
8.85,-27.18659784307,-0.0151179570912201
8.8625,-27.1614356572375,-0.0151705566353867
8.875,-27.1364327567704,-0.0152238098339531
8.8875,-27.1115893092684,-0.0152777152076184
8.9,-27.0869055060286,-0.0153322697237907
8.9125,-27.062381561648,-0.0153874687707841
8.925,-27.0380177136388,-0.0154433061336952
8.9375,-27.0138142220559,-0.0154997739719136
8.95,-26.9897713691387,-0.0155568627983881
8.9625,-26.9658894589639,-0.0156145614605899
8.975,-26.9421688171119,-0.0156728571232331
8.9875,-26.9186097903446,-0.0157317352527858
9,-26.8952127462959,-0.0157911796037775
9.0125,-26.8719780731746,-0.0158511722069617
9.025,-26.8489061794785,-0.0159116933593021
9.0375,-26.8259974937214,-0.0159727216158491
9.05,-26.8032524641717,-0.0160342337835374
9.0625,-26.7806715586033,-0.0160962049168808
9.075,-26.7582552640586,-0.0161586083156347
9.0875,-26.7360040866231,-0.0162214155244113
9.1,-26.7139185512136,-0.0162845963343091
9.1125,-26.6919992013771,-0.0163481187865383
9.125,-26.6702465991037,-0.0164119491780649
9.1375,-26.6486613246513,-0.0164760520693626
9.15,-26.6272439763837,-0.0165403902941859
9.1625,-26.6059951706214,-0.0166049249714389
9.175,-26.5849155415061,-0.0166696155192023
9.1875,-26.564005740879,-0.0167344196708516
9.2,-26.5432664381724,-0.0167992934933347
9.2125,-26.5226983203163,-0.0168641914076413
9.225,-26.5023020916598,-0.016929066211423
9.2375,-26.4820784739067,-0.0169938691038428
9.25,-26.4620282060677,-0.0170585497126558
9.2625,-26.4421520444281,-0.0171230561234931
9.275,-26.4224507625323,-0.0171873349114439
9.2875,-26.4029251511851,-0.0172513311748824
9.3,-26.3835760184715,-0.0173149885715939
9.3125,-26.3644041897942,-0.017378249357203
9.325,-26.3454105079303,-0.0174410544259251
9.3375,-26.3265958331087,-0.0175033433536425
9.35,-26.3079610431067,-0.0175650544433629
9.3625,-26.2895070333699,-0.0176261247729793
9.375,-26.2712347171531,-0.0176864902454922
9.3875,-26.2531450256854,-0.0177460856415602
9.4,-26.2352389083594,-0.0178048446744827
9.4125,-26.2175173329469,-0.0178627000476061
9.425,-26.1999812858399,-0.0179195835141653
9.4375,-26.1826317723208,-0.0179754259395674
9.45,-26.165469816862,-0.0180301573661236
9.4625,-26.1484964634554,-0.0180837070803029
9.475,-26.1317127759752,-0.0181360036824039
9.4875,-26.1151198385746,-0.0181869751587845
9.5,-26.0987187561172,-0.018236548956592
9.5125,-26.0825106546475,-0.0182846520609477
9.525,-26.0664966818995,-0.0183312110747924
9.5375,-26.0506780078479,-0.0183761523011672
9.55,-26.0350558253025,-0.0184194018280945
9.5625,-26.0196313505488,-0.0184608856160527
9.575,-26.0044058240376,-0.0185005295879775
9.5875,-25.989380511126,-0.0185382597218923
9.6,-25.9745567028721,-0.0185740021461402
9.6125,-25.9599357168874,-0.0186076832371987
9.625,-25.94551889825,-0.0186392297201609
9.6375,-25.9313076204812,-0.0186685687718062
9.65,-25.91730328659,-0.0186956281263364
9.6625,-25.9035073301899,-0.0187203361837767
9.675,-25.889921216691,-0.0187426221210047
9.6875,-25.8765464445725,-0.0187624160054809
9.7,-25.8633845467411,-0.0187796489116523
9.7125,-25.8504370919797,-0.0187942530400377
9.725,-25.8377056864919,-0.0188061618390466
9.7375,-25.825191975549,-0.0188153101294373
9.75,-25.8128976452449,-0.018821634231591
9.7625,-25.8008244243672,-0.0188250720954206
9.775,-25.7889740863899,-0.0188255634330625
9.7875,-25.7773484515977,-0.0188230498543268
9.8,-25.7659493893489,-0.0188174750048269
9.8125,-25.7547788204864,-0.018808784706983
9.825,-25.7438387199076,-0.0187969271036615
9.8375,-25.733131119302,-0.0187818528047079
9.85,-25.7226581100703,-0.0187635150361815
9.8625,-25.7124218464351,-0.0187418697924226
9.875,-25.7024245487577,-0.0187168759908855
9.8875,-25.6926685070757,-0.0186884956298159
9.9,-25.6831560848764,-0.0186566939487005
9.9125,-25.6738897231226,-0.0186214395915406
9.925,-25.6648719445502,-0.0185827047729772
9.9375,-25.656105358256,-0.01854046544719
9.95,-25.6475926645991,-0.0184947014796962
9.9625,-25.6393366604368,-0.0184453968219263
9.975,-25.6313402447226,-0.0183925396886689
9.9875,-25.623606424493,-0.0183361227383762
10,-25.6161383212724,-0.0182761432563268
10.0125,-25.6089391779313,-0.0182126033405616
10.025,-25.6020123660299,-0.0181455100908109
10.0375,-25.5953613936902,-0.0180748758001715
10.05,-25.5889899140359,-0.0180007181496931
10.0625,-25.5829017342493,-0.0179230604058252
10.075,-25.5771008252942,-0.0178419316207406
10.0875,-25.571591332363,-0.0177573668354893
10.1,-25.5663775861083,-0.0176694072860489
10.1125,-25.5614641147271,-0.0175781006122276
10.125,-25.5568556569715,-0.0174835010694383
10.1375,-25.5525571761693,-0.0173856697433266
10.15,-25.5485738753439,-0.0172846747672466
10.1625,-25.544911213533,-0.0171805915426129
10.175,-25.5415749234179,-0.0170735029620769
10.1875,-25.5385710303852,-0.0169634996355895
10.2,-25.535905873155,-0.0168506801192094
10.2125,-25.5335861261288,-0.0167351511468373
10.225,-25.5316188236209,-0.0166170278647305
10.2375,-25.5300113861629,-0.0164964340687909
10.25,-25.5287716490858,-0.0163735024447175
10.2625,-25.5279078936126,-0.0162483748108647
10.275,-25.5274288807201,-0.0161212023639523
10.2875,-25.5273438880602,-0.0159921459274332
10.3,-25.5276627502639,-0.0158613762027153
10.3125,-25.5283959029961,-0.0157290740229761
10.325,-25.5295544311698,-0.0155954306097633
10.3375,-25.5311501217843,-0.0154606478322109
10.35,-25.5331955219104,-0.0153249384689651
10.3625,-25.5357040024151,-0.0151885264726627
10.375,-25.5386898280969,-0.0150516472370501
10.3875,-25.5421682349944,-0.0149145478666625
10.4,-25.5461555157371,-0.0147774874490118
10.4125,-25.5506691139284,-0.0146407373292711
10.425,-25.5557277286928,-0.0145045813874606
10.4375,-25.5613514306861,-0.0143693163179556
10.45,-25.5675617910579,-0.0142352519114968
10.4625,-25.574382025083,-0.0141027113394057
10.475,-25.5818371524422,-0.0139720314401425
10.4875,-25.5899541764444,-0.0138435630080716
10.5,-25.5987622848504,-0.0137176710844326
10.5125,-25.6082930753936,-0.0135947352503465
10.525,-25.6185808096086,-0.0134751499219559
10.5375,-25.6296626991978,-0.0133593246474563
10.55,-25.6415792299004,-0.01324768440617
10.5625,-25.6543745287127,-0.013140669909311
10.575,-25.6680967813767,-0.0130387379026373
10.5875,-25.6827987083388,-0.0129423614706795
10.6,-25.6985381089482,-0.0128520303426794
10.6125,-25.7153784855711,-0.0127682511998968
10.625,-25.7333897616359,-0.012691547984431
10.6375,-25.7526491105002,-0.012622462209319
10.65,-25.7732419155894,-0.0125615532698123
10.6625,-25.7952628866784,-0.0125093987557351
10.675,-25.8188173627146,-0.0124665947648985
10.6875,-25.8440228385265,-0.0124337562172426
10.7,-25.8710107615406,-0.0124115171698057
10.7125,-25.8999286557985,-0.0124005311322482
10.725,-25.9309426448653,-0.0124014713828216
10.7375,-25.9642404636551,-0.0124150312846242
10.75,-26.0000350731429,-0.0124419246020664
10.7625,-26.0385690232689,-0.0124828858172877
10.775,-26.0801197506911,-0.0125386704463804
10.7875,-26.1250060530889,-0.0126100553553539
10.8,-26.1735960556761,-0.0126978390754429
10.8125,-26.2263170859372,-0.0128028421178375
10.825,-26.2836680102232,-0.0129259072874064
10.8375,-26.3462347767275,-0.0130678999953274
10.85,-26.4147101773505,-0.0132297085704531
10.8625,-26.489919222171,-0.0134122445690175
10.875,-26.5728520701973,-0.0136164430826912
10.8875,-26.6647072656893,-0.0138432630445341
10.9,-26.7669492291789,-0.0140936875327548
10.9125,-26.8813857717447,-0.0143687240719097
10.925,-27.0102742148061,-0.0146694049313989
10.9375,-27.1564691434875,-0.0149967874208062
10.95,-27.3236320132879,-0.0153519541820315
10.9625,-27.5165347672102,-0.0157360134777188
10.975,-27.7415100023164,-0.0161500994758066
10.9875,-28.0071361086085,-0.0165953725298036
11,-28.3253110858033,-0.0170730194545649
