! TOUCHSTONE file generated by CST MICROWAVE STUDIO
! Date and time: Fri Apr 25 09:59:45 2025
! Project name: X²¨¶ÎÐý×ª·ÖÎö.cst
! Parameters = {realphi=180; phi=540; theta=3; blendraduis=2.84566; L=6; Pin=1; a=20; b=10; blendFmax=0.02; blendradius=2.85; d=5; s=4; ta=16.03; tb=10.61; totaltime=10; trh=1.69; wr=11.49; wt=0.91}
! Header version: 2018
! Port assignment regex: !\s*Touchstone port\s*([0-9]+)\s*=\s*(CST MWS port|CST DS port)\s*([0-9]+|Zmin|Zmax)\s*\(\"(.*)\"\)(\s*mode\s*([0-9]+))?.*
! Touchstone port assignment:
! Touchstone port 1 = CST MWS port 1 ("")
! Touchstone port 2 = CST MWS port 2 ("")
! S-Parameters are not renormalized. Unphysical impedance of 0 will be written to the file.
# GHz S MA R 0
6                   0.0435478276       68.230382      0.997086749     -23.2965369                0               0                0               0
6.0008              0.0435883981      68.1435391      0.997112582     -23.3693092                0               0                0               0
6.0016              0.0436290806      68.0564526      0.997138312     -23.4420436                0               0                0               0
6.0024              0.0436698755      67.9691214       0.99716394     -23.5147401                0               0                0               0
6.0032              0.0437107831      67.8815446      0.997189465     -23.5873987                0               0                0               0
6.004               0.0437518038      67.7937211      0.997214888     -23.6600195                0               0                0               0
6.0048              0.0437929379      67.7056498       0.99724021     -23.7326024                0               0                0               0
6.0056               0.043834186      67.6173296      0.997265429     -23.8051475                0               0                0               0
6.0064              0.0438755482      67.5287594      0.997290548     -23.8776546                0               0                0               0
6.0072              0.0439170251      67.4399382      0.997315565     -23.9501239                0               0                0               0
6.008               0.0439586169      67.3508649       0.99734048     -24.0225552                0               0                0               0
6.0088              0.0440003241      67.2615382      0.997365296     -24.0949487                0               0                0               0
6.0096              0.0440421471      67.1719573       0.99739001     -24.1673043                0               0                0               0
6.0104              0.0440840861      67.0821208      0.997414624      -24.239622                0               0                0               0
6.0112              0.0441261417      66.9920278      0.997439138     -24.3119018                0               0                0               0
6.012               0.0441683141       66.901677      0.997463552     -24.3841437                0               0                0               0
6.0128              0.0442106038      66.8110674      0.997487866     -24.4563477                0               0                0               0
6.0136              0.0442530111      66.7201978      0.997512081     -24.5285139                0               0                0               0
6.0144              0.0442955364      66.6290671      0.997536197     -24.6006421                0               0                0               0
6.0152              0.0443381801       66.537674      0.997560213     -24.6727324                0               0                0               0
6.016               0.0443809426      66.4460176      0.997584131     -24.7447847                0               0                0               0
6.0168              0.0444238242      66.3540965      0.997607949     -24.8167992                0               0                0               0
6.0176              0.0444668254      66.2619097       0.99763167     -24.8887758                0               0                0               0
6.0184              0.0445099464      66.1694559      0.997655292     -24.9607145                0               0                0               0
6.0192              0.0445531878       66.076734      0.997678816     -25.0326152                0               0                0               0
6.02                0.0445965498      65.9837427      0.997702243     -25.1044781                0               0                0               0
6.0208              0.0446400328       65.890481      0.997725571      -25.176303                0               0                0               0
6.0216              0.0446836373      65.7969475      0.997748803       -25.24809                0               0                0               0
6.0224              0.0447273636      65.7031411      0.997771937     -25.3198391                0               0                0               0
6.0232              0.0447712121      65.6090605      0.997794974     -25.3915503                0               0                0               0
6.024               0.0448151832      65.5147046      0.997817915     -25.4632236                0               0                0               0
6.0248              0.0448592772      65.4200721      0.997840759      -25.534859                0               0                0               0
6.0256              0.0449034946      65.3251617      0.997863507     -25.6064564                0               0                0               0
6.0264              0.0449478356      65.2299723      0.997886158      -25.678016                0               0                0               0
6.0272              0.0449923007      65.1345025      0.997908714     -25.7495376                0               0                0               0
6.028               0.0450368904      65.0387512      0.997931175     -25.8210213                0               0                0               0
6.0288              0.0450816048       64.942717      0.997953539     -25.8924671                0               0                0               0
6.0296              0.0451264445      64.8463987      0.997975809      -25.963875                0               0                0               0
6.0304              0.0451714098       64.749795      0.997997983      -26.035245                0               0                0               0
6.0312              0.0452165011      64.6529046      0.998020063      -26.106577                0               0                0               0
6.032               0.0452617187      64.5557262      0.998042048     -26.1778712                0               0                0               0
6.0328               0.045307063      64.4582586      0.998063939     -26.2491274                0               0                0               0
6.0336              0.0453525345      64.3605004      0.998085735     -26.3203458                0               0                0               0
6.0344              0.0453981335      64.2624503      0.998107438     -26.3915262                0               0                0               0
6.0352              0.0454438603      64.1641069      0.998129047     -26.4626687                0               0                0               0
6.036               0.0454897154      64.0654691      0.998150562     -26.5337733                0               0                0               0
6.0368              0.0455356991      63.9665353      0.998171984       -26.60484                0               0                0               0
6.0376              0.0455818118      63.8673044      0.998193313     -26.6758688                0               0                0               0
6.0384              0.0456280538      63.7677749      0.998214549     -26.7468597                0               0                0               0
6.0392              0.0456744256      63.6679454      0.998235693     -26.8178127                0               0                0               0
6.04                0.0457209275      63.5678147      0.998256744     -26.8887278                0               0                0               0
6.0408              0.0457675599      63.4673813      0.998277703      -26.959605                0               0                0               0
6.0416              0.0458143231      63.3666439      0.998298569     -27.0304443                0               0                0               0
6.0424              0.0458612175       63.265601      0.998319344     -27.1012457                0               0                0               0
6.0432              0.0459082435      63.1642513      0.998340027     -27.1720092                0               0                0               0
6.044               0.0459554015      63.0625933      0.998360619     -27.2427348                0               0                0               0
6.0448              0.0460026918      62.9606258       0.99838112     -27.3134226                0               0                0               0
6.0456              0.0460501147      62.8583471       0.99840153     -27.3840724                0               0                0               0
6.0464              0.0460976707       62.755756      0.998421849     -27.4546844                0               0                0               0
6.0472              0.0461453602      62.6528509      0.998442077     -27.5252585                0               0                0               0
6.048               0.0461931833      62.5496305      0.998462215     -27.5957947                0               0                0               0
6.0488              0.0462411406      62.4460933      0.998482263     -27.6662931                0               0                0               0
6.0496              0.0462892324      62.3422378      0.998502221     -27.7367535                0               0                0               0
6.0504              0.0463374591      62.2380625       0.99852209     -27.8071761                0               0                0               0
6.0512              0.0463858209       62.133566      0.998541868     -27.8775609                0               0                0               0
6.052               0.0464343183      62.0287469      0.998561558     -27.9479078                0               0                0               0
6.0528              0.0464829516      61.9236035      0.998581158     -28.0182168                0               0                0               0
6.0536              0.0465317212      61.8181344       0.99860067     -28.0884879                0               0                0               0
6.0544              0.0465806273      61.7123382      0.998620093     -28.1587212                0               0                0               0
6.0552              0.0466296704      61.6062132      0.998639428     -28.2289167                0               0                0               0
6.056               0.0466788508       61.499758      0.998658674     -28.2990743                0               0                0               0
6.0568              0.0467281689       61.392971      0.998677832     -28.3691941                0               0                0               0
6.0576              0.0467776249      61.2858507      0.998696903      -28.439276                0               0                0               0
6.0584              0.0468272192      61.1783956      0.998715885     -28.5093201                0               0                0               0
6.0592              0.0468769523       61.070604      0.998734781     -28.5793264                0               0                0               0
6.06                0.0469268243      60.9624744      0.998753589     -28.6492949                0               0                0               0
6.0608              0.0469768356      60.8540053      0.998772311     -28.7192255                0               0                0               0
6.0616              0.0470269866       60.745195      0.998790945     -28.7891183                0               0                0               0
6.0624              0.0470772775       60.636042      0.998809493     -28.8589733                0               0                0               0
6.0632              0.0471277088      60.5265446      0.998827955     -28.9287905                0               0                0               0
6.064               0.0471782807      60.4167013       0.99884633     -28.9985699                0               0                0               0
6.0648              0.0472289936      60.3065104       0.99886462     -29.0683115                0               0                0               0
6.0656              0.0472798478      60.1959703      0.998882824     -29.1380153                0               0                0               0
6.0664              0.0473308435      60.0850793      0.998900942     -29.2076813                0               0                0               0
6.0672              0.0473819811      59.9738359      0.998918975     -29.2773095                0               0                0               0
6.068                0.047433261      59.8622383      0.998936923     -29.3468999                0               0                0               0
6.0688              0.0474846833       59.750285      0.998954786     -29.4164526                0               0                0               0
6.0696              0.0475362485      59.6379741      0.998972565     -29.4859675                0               0                0               0
6.0704              0.0475879568      59.5253041      0.998990258     -29.5554446                0               0                0               0
6.0712              0.0476398085      59.4122733      0.999007868      -29.624884                0               0                0               0
6.072                0.047691804      59.2988799      0.999025394     -29.6942856                0               0                0               0
6.0728              0.0477439434      59.1851222      0.999042835     -29.7636495                0               0                0               0
6.0736              0.0477962271      59.0709985      0.999060193     -29.8329756                0               0                0               0
6.0744              0.0478486554      58.9565072      0.999077468      -29.902264                0               0                0               0
6.0752              0.0479012285      58.8416464       0.99909466     -29.9715146                0               0                0               0
6.076               0.0479539468      58.7264143      0.999111768     -30.0407276                0               0                0               0
6.0768              0.0480068105      58.6108094      0.999128793     -30.1099028                0               0                0               0
6.0776              0.0480598198      58.4948297      0.999145736     -30.1790403                0               0                0               0
6.0784               0.048112975      58.3784735      0.999162597     -30.2481401                0               0                0               0
6.0792              0.0481662765       58.261739      0.999179375     -30.3172021                0               0                0               0
6.08                0.0482197243      58.1446245      0.999196072     -30.3862265                0               0                0               0
6.0808              0.0482733189      58.0271281      0.999212686     -30.4552132                0               0                0               0
6.0816              0.0483270604      57.9092479      0.999229219     -30.5241623                0               0                0               0
6.0824              0.0483809491      57.7909823      0.999245671     -30.5930736                0               0                0               0
6.0832              0.0484349852      57.6723293      0.999262041     -30.6619473                0               0                0               0
6.084               0.0484891689       57.553287       0.99927833     -30.7307833                0               0                0               0
6.0848              0.0485435006      57.4338538      0.999294539     -30.7995817                0               0                0               0
6.0856              0.0485979803      57.3140276      0.999310667     -30.8683424                0               0                0               0
6.0864              0.0486526083      57.1938066      0.999326715     -30.9370655                0               0                0               0
6.0872              0.0487073849       57.073189      0.999342682     -31.0057509                0               0                0               0
6.088               0.0487623101      56.9521727       0.99935857     -31.0743987                0               0                0               0
6.0888              0.0488173843       56.830756      0.999374378     -31.1430089                0               0                0               0
6.0896              0.0488726077      56.7089369      0.999390106     -31.2115815                0               0                0               0
6.0904              0.0489279803      56.5867135      0.999405755     -31.2801165                0               0                0               0
6.0912              0.0489835024      56.4640838      0.999421325     -31.3486138                0               0                0               0
6.092               0.0490391742       56.341046      0.999436816     -31.4170736                0               0                0               0
6.0928              0.0490949959       56.217598      0.999452228     -31.4854958                0               0                0               0
6.0936              0.0491509675      56.0937378      0.999467562     -31.5538804                0               0                0               0
6.0944              0.0492070894      55.9694636      0.999482817     -31.6222275                0               0                0               0
6.0952              0.0492633615      55.8447733      0.999497994      -31.690537                0               0                0               0
6.096               0.0493197841      55.7196649      0.999513093     -31.7588089                0               0                0               0
6.0968              0.0493763572      55.5941365      0.999528115     -31.8270433                0               0                0               0
6.0976              0.0494330811      55.4681859      0.999543059     -31.8952402                0               0                0               0
6.0984              0.0494899558      55.3418113      0.999557925     -31.9633996                0               0                0               0
6.0992              0.0495469815      55.2150104      0.999572715     -32.0315214                0               0                0               0
6.1                 0.0496041583      55.0877814      0.999587427     -32.0996057                0               0                0               0
6.1008              0.0496614862      54.9601221      0.999602063     -32.1676525                0               0                0               0
6.1016              0.0497189654      54.8320304      0.999616622     -32.2356618                0               0                0               0
6.1024              0.0497765959      54.7035043      0.999631105     -32.3036336                0               0                0               0
6.1032              0.0498343779      54.5745417      0.999645512      -32.371568                0               0                0               0
